
T1250 000:376 SEGGER J-Link V4.24b Log File (0002ms, 0375ms total)
T1250 000:376 DLL Compiled: Feb 22 2011 20:47:17 (0002ms, 0375ms total)
T1250 000:376 Logging started @ 2011-08-07 17:53 (0002ms, 0375ms total)
T1250 000:378 JLINK_SetWarnOutHandler(...) (0000ms, 0377ms total)
T1250 000:378 JLINK_OpenEx(...)
Firmware: J-Link ARM V7 compiled Feb 15 2011 11:03:33
Hardware: V7.00
Feature(s): RDI, FlashBP, FlashDL, JFlash, GDBFull  returns O.K. (0175ms, 0377ms total)
T1250 000:553 JLINK_SetErrorOutHandler(...) (0000ms, 0552ms total)
T1250 000:553 JLINK_ExecCommand("ProjectFile = "D:\ProgramFiles\MicroFrameworkPK\v4_1\Solutions\STM32F103ZE_RedCow\Debug\TinyClr\JLinkSettings.ini"", ...)  returns 0x00 (0002ms, 0552ms total)
T1250 000:555 JLINK_ExecCommand("DisableConnectionTimeout", ...)  returns 0x00 (0000ms, 0554ms total)
T1250 000:557 JLINK_TIF_Select(JLINKARM_TIF_SWD)  returns 0x00 (0001ms, 0554ms total)
T1250 000:559 JLINK_SetSpeed(2000) (0000ms, 0555ms total)
T1250 000:559 JLINK_GetHardwareVersion()  returns 0x11170 (0000ms, 0555ms total)
T1250 000:559 JLINK_GetDLLVersion()  returns 42402 (0000ms, 0555ms total)
T1250 000:559 JLINK_GetFirmwareString(...) (0001ms, 0555ms total)
T1250 000:560 JLINK_GetDLLVersion()  returns 42402 (0000ms, 0556ms total)
T1250 000:560 JLINK_GetCompileDateTime() (0000ms, 0556ms total)
T1250 000:560 JLINK_GetFirmwareString(...) (0000ms, 0556ms total)
T1250 000:560 JLINK_GetHardwareVersion()  returns 0x11170 (0000ms, 0556ms total)
T1250 000:560 JLINK_GetId() >0x108 TIF>Found SWD-DP with ID 0x1BA01477 >0x33 TIF> >0x33 TIF> >0x35 TIF> >0x33 TIF> >0x35 TIF> >0x33 TIF> >0x33 TIF> >0x35 TIF> >0x33 TIF> >0x33 TIF> >0x35 TIF> >0x33 TIF> >0x33 TIF> >0x35 TIF> >0x35 TIF> >0x35 TIF> >0x35 TIF> >0x33 TIF> >0x33 TIF> >0x33 TIF> >0x35 TIF> >0x35 TIF> >0x35 TIF> >0x35 TIF> >0x33 TIF> >0x33 TIF> >0x35 TIF> >0x35 TIF> >0x35 TIF> >0x33 TIF> >0x33 TIF>TPIU fitted. >0x35 TIF> >0x35 TIF> >0x35 TIF> >0x33 TIF> >0x33 TIF>ETM fitted. >0x35 TIF>
 >0x35 TIF> >0x35 TIF> >0x33 TIF> >0x33 TIF> >0x35 TIF> >0x35 TIF> >0x35 TIF> >0x33 TIF> >0x33 TIF>  FPUnit: 6 code (BP) slots and 2 literal slots >0x35 TIF> >0x35 TIF> >0x35 TIF> >0x33 TIF> >0x33 TIF> >0x35 TIF> >0x35 TIF> >0x35 TIF> >0x33 TIF> >0x33 TIF> >0x35 TIF> >0x35 TIF> >0x35 TIF> >0x33 TIF> >0x33 TIF>Found Cortex-M3 r1p1, Little endian. >0x33 TIF>  returns 0x1BA01477 (0043ms, 0556ms total)
T1250 000:603 JLINK_GetDebugInfo(0x100) -- Value=0xE00FF003  returns 0x00 (0000ms, 0599ms total)
T1250 000:603 JLINK_ReadMem (0xE00FFFF0, 0x0010 Bytes, ...) -- CPU is running -- CPU_ReadMem(16 bytes @ 0xE00FFFF0) -- Data:  0D 00 00 00 10 00 00 00 05 00 00 00 B1 00 00 00  returns 0x00 (0001ms, 0599ms total)
T1250 000:604 JLINK_ReadMem (0xE00FFFD0, 0x0020 Bytes, ...) -- CPU is running -- CPU_ReadMem(32 bytes @ 0xE00FFFD0) -- Data:  00 00 00 00 00 00 00 00 00 00 00 00 00 00 00 00 ...  returns 0x00 (0001ms, 0600ms total)
T1250 000:605 JLINK_ReadMem (0xE00FF000, 0x0018 Bytes, ...) -- CPU is running -- CPU_ReadMem(24 bytes @ 0xE00FF000) -- Data:  03 F0 F0 FF 03 20 F0 FF 03 30 F0 FF 03 10 F0 FF ...  returns 0x00 (0001ms, 0601ms total)
T1250 000:607 JLINK_ReadMemU32(0xE000ED00, 0x0001 Items, ...) -- CPU is running -- CPU_ReadMem(4 bytes @ 0xE000ED00) -- Data:  31 C2 1F 41  returns 0x01 (0001ms, 0603ms total)
T1250 000:608 JLINK_SetResetType(JLINKARM_RESET_TYPE_NORMAL)  returns JLINKARM_RESET_TYPE_NORMAL (0000ms, 0604ms total)
T1250 000:608 JLINK_Reset() >0x108 TIF>Found SWD-DP with ID 0x1BA01477 >0x33 TIF> >0x33 TIF> >0x35 TIF> >0x33 TIF> >0x35 TIF> >0x33 TIF> >0x33 TIF> >0x35 TIF> >0x33 TIF> >0x33 TIF> >0x35 TIF> >0x33 TIF> >0x33 TIF> >0x35 TIF> >0x35 TIF> >0x35 TIF> >0x35 TIF> >0x33 TIF> >0x33 TIF> >0x33 TIF> >0x35 TIF> >0x35 TIF> >0x35 TIF> >0x35 TIF> >0x33 TIF> >0x33 TIF> >0x35 TIF> >0x35 TIF> >0x35 TIF> >0x33 TIF> >0x33 TIF>TPIU fitted. >0x35 TIF> >0x35 TIF> >0x35 TIF> >0x33 TIF> >0x33 TIF>ETM fitted. >0x35 TIF>
 >0x35 TIF> >0x35 TIF> >0x33 TIF> >0x33 TIF> >0x35 TIF> >0x35 TIF> >0x35 TIF> >0x33 TIF> >0x33 TIF>  FPUnit: 6 code (BP) slots and 2 literal slots >0x35 TIF> >0x35 TIF> >0x35 TIF> >0x33 TIF> >0x33 TIF> >0x35 TIF> >0x35 TIF> >0x35 TIF> >0x33 TIF> >0x33 TIF> >0x35 TIF> >0x35 TIF> >0x35 TIF> >0x33 TIF> >0x33 TIF>Found Cortex-M3 r1p1, Little endian. (0062ms, 0604ms total)
T1250 000:670 JLINK_ReadReg(R15)  returns 0x080022C0 (0000ms, 0666ms total)
T1250 000:670 JLINK_ReadReg(XPSR)  returns 0x01000000 (0000ms, 0666ms total)
T1250 000:670 JLINK_ExecCommand("Device = STM32F103ZE", ...)
                JLINK_ExecCommand("map ram 0x20000000 - 0x2000FFFF", ...)  returns 0x00 (0000ms, 0000ms total)
                JLINK_AddMirrorAreaEx(Addr = 0x00000000, Size = 0x00000000) (0000ms, 0000ms total)
                returns 0x00 (0002ms, 0666ms total)
T1250 000:672 JLINK_Halt() >0x108 TIF>Found SWD-DP with ID 0x1BA01477 >0x33 TIF> >0x33 TIF> >0x35 TIF> >0x33 TIF> >0x35 TIF> >0x33 TIF> >0x33 TIF> >0x35 TIF> >0x33 TIF> >0x33 TIF> >0x35 TIF> >0x33 TIF> >0x33 TIF> >0x35 TIF> >0x35 TIF> >0x35 TIF> >0x35 TIF> >0x33 TIF> >0x33 TIF> >0x33 TIF> >0x35 TIF> >0x35 TIF> >0x35 TIF> >0x35 TIF> >0x33 TIF> >0x33 TIF> >0x35 TIF> >0x35 TIF> >0x35 TIF> >0x33 TIF> >0x33 TIF>TPIU fitted. >0x35 TIF> >0x35 TIF> >0x35 TIF> >0x33 TIF> >0x33 TIF>ETM fitted. >0x35 TIF>
 >0x35 TIF> >0x35 TIF> >0x33 TIF> >0x33 TIF> >0x35 TIF> >0x35 TIF> >0x35 TIF> >0x33 TIF> >0x33 TIF>  FPUnit: 6 code (BP) slots and 2 literal slots >0x35 TIF> >0x35 TIF> >0x35 TIF> >0x33 TIF> >0x33 TIF> >0x35 TIF> >0x35 TIF> >0x35 TIF> >0x33 TIF> >0x33 TIF> >0x35 TIF> >0x35 TIF> >0x35 TIF> >0x33 TIF> >0x33 TIF>Found Cortex-M3 r1p1, Little endian.  returns 0x00 (0044ms, 0668ms total)
T1250 000:716 JLINK_IsHalted()  returns TRUE (0000ms, 0712ms total)
T1250 000:716 JLINK_ReadMemU32(0xE000EDF0, 0x0001 Items, ...) -- CPU_ReadMem(4 bytes @ 0xE000EDF0) -- Data:  03 00 03 00  returns 0x01 (0001ms, 0712ms total)
T1250 000:717 JLINK_WriteU32(0xE000EDF0, 0xA05F0003) -- CPU_WriteMem(4 bytes @ 0xE000EDF0)  returns 0x00 (0001ms, 0713ms total)
T1250 000:718 JLINK_WriteU32(0xE000EDFC, 0x01000000) -- CPU_WriteMem(4 bytes @ 0xE000EDFC)  returns 0x00 (0001ms, 0714ms total)
T1250 000:719 JLINK_ReadMemU32(0xE0002000, 0x0001 Items, ...) -- CPU_ReadMem(4 bytes @ 0xE0002000) -- Data:  60 02 00 00  returns 0x01 (0001ms, 0715ms total)
T1250 000:720 JLINK_ReadMemU32(0xE0001000, 0x0001 Items, ...) -- CPU_ReadMem(4 bytes @ 0xE0001000) -- Data:  01 00 00 40  returns 0x01 (0000ms, 0716ms total)
T1250 000:721 JLINK_GetHWStatus(...)  returns 0x00 (0000ms, 0716ms total)
T1250 000:721 JLINK_GetNumBPUnits(Type = 0xFFFFFF00)  returns 0x06 (0000ms, 0716ms total)
T1250 000:721 JLINK_GetNumBPUnits(Type = 0xF0)  returns 0x800 (0000ms, 0716ms total)
T1250 000:721 JLINK_GetNumWPUnits()  returns 0x04 (0000ms, 0716ms total)
T1250 000:722 JLINK_GetSpeed()  returns 0x7D0 (0000ms, 0716ms total)
T1250 000:722 JLINK_ReadMemU32(0xE000E004, 0x0001 Items, ...) -- CPU_ReadMem(4 bytes @ 0xE000E004) -- Data:  01 00 00 00  returns 0x01 (0001ms, 0716ms total)
T1250 000:723 JLINK_WriteMem(0xE0001000, 0x001C Bytes, ...) -- Data:  01 00 00 00 00 00 00 00 00 00 00 00 00 00 00 00 ... -- CPU_WriteMem(28 bytes @ 0xE0001000)  returns 0x1C (0001ms, 0717ms total)
T1250 000:724 JLINK_ReadMem (0xE0001000, 0x001C Bytes, ...) -- CPU_ReadMem(28 bytes @ 0xE0001000) -- Data:  01 00 00 40 00 00 00 00 00 00 00 00 00 00 00 00 ...  returns 0x00 (0001ms, 0718ms total)
T1250 000:725 JLINK_ReadReg(R15)  returns 0x080022C0 (0000ms, 0719ms total)
T1250 000:725 JLINK_ReadReg(XPSR)  returns 0x01000000 (0000ms, 0719ms total)
T1250 036:630 JLINK_SetResetType(JLINKARM_RESET_TYPE_NORMAL)  returns JLINKARM_RESET_TYPE_NORMAL (0000ms, 0719ms total)
T1250 036:630 JLINK_Reset() >0x108 TIF>Found SWD-DP with ID 0x1BA01477 >0x33 TIF> >0x33 TIF> >0x35 TIF> >0x33 TIF> >0x35 TIF> >0x33 TIF> >0x33 TIF> >0x35 TIF> >0x33 TIF> >0x33 TIF> >0x35 TIF> >0x33 TIF> >0x33 TIF> >0x35 TIF> >0x35 TIF> >0x35 TIF> >0x35 TIF> >0x33 TIF> >0x33 TIF> >0x33 TIF> >0x35 TIF> >0x35 TIF> >0x35 TIF> >0x35 TIF> >0x33 TIF> >0x33 TIF> >0x35 TIF> >0x35 TIF> >0x35 TIF> >0x33 TIF> >0x33 TIF>TPIU fitted. >0x35 TIF> >0x35 TIF> >0x35 TIF> >0x33 TIF> >0x33 TIF>ETM fitted. >0x35 TIF>
 >0x35 TIF> >0x35 TIF> >0x33 TIF> >0x33 TIF> >0x35 TIF> >0x35 TIF> >0x35 TIF> >0x33 TIF> >0x33 TIF>  FPUnit: 6 code (BP) slots and 2 literal slots >0x35 TIF> >0x35 TIF> >0x35 TIF> >0x33 TIF> >0x33 TIF> >0x35 TIF> >0x35 TIF> >0x35 TIF> >0x33 TIF> >0x33 TIF> >0x35 TIF> >0x35 TIF> >0x35 TIF> >0x33 TIF> >0x33 TIF>Found Cortex-M3 r1p1, Little endian. (0065ms, 0719ms total)
T1250 036:695 JLINK_ReadReg(R15)  returns 0x080022C0 (0001ms, 0784ms total)
T1250 036:696 JLINK_ReadReg(XPSR)  returns 0x01000000 (0000ms, 0785ms total)
T1250 036:696 JLINK_ReadReg(R0)  returns 0x5DAF0C12 (0000ms, 0785ms total)
T1250 036:696 JLINK_ReadReg(R1)  returns 0x5DAF0C0E (0000ms, 0785ms total)
T1250 036:696 JLINK_ReadReg(R2)  returns 0x68023234 (0000ms, 0785ms total)
T1250 036:696 JLINK_ReadReg(R3)  returns 0x08035241 (0000ms, 0785ms total)
T1250 036:696 JLINK_ReadReg(R4)  returns 0x5DAF0C1E (0000ms, 0785ms total)
T1250 036:696 JLINK_ReadReg(R5)  returns 0x68023234 (0000ms, 0785ms total)
T1250 036:696 JLINK_ReadReg(R6)  returns 0x68023234 (0000ms, 0785ms total)
T1250 036:696 JLINK_ReadReg(R7)  returns 0x0000000F (0000ms, 0785ms total)
T1250 036:696 JLINK_ReadReg(R8)  returns 0x0000002D (0000ms, 0785ms total)
T1250 036:696 JLINK_ReadReg(R9)  returns 0x00000001 (0000ms, 0785ms total)
T1250 036:696 JLINK_ReadReg(R10)  returns 0x40011000 (0001ms, 0785ms total)
T1250 036:697 JLINK_ReadReg(R11)  returns 0x00000000 (0000ms, 0786ms total)
T1250 036:697 JLINK_ReadReg(R12)  returns 0x00000008 (0000ms, 0786ms total)
T1250 036:697 JLINK_ReadReg(R14)  returns 0xFFFFFFFF (0000ms, 0786ms total)
T1250 036:697 JLINK_ReadReg(R15)  returns 0x080022C0 (0000ms, 0786ms total)
T1250 036:697 JLINK_ReadReg(XPSR)  returns 0x01000000 (0000ms, 0786ms total)
T1250 036:697 JLINK_ReadReg(CFBP)  returns 0x00000000 (0000ms, 0786ms total)
T1250 036:697 JLINK_ReadReg(MSP)  returns 0x6803FFFC (0000ms, 0786ms total)
T1250 036:697 JLINK_WriteReg(R0, 0x5DAF0C12)  returns 0x00 (0000ms, 0786ms total)
T1250 036:697 JLINK_WriteReg(R1, 0x5DAF0C0E)  returns 0x00 (0000ms, 0786ms total)
T1250 036:697 JLINK_WriteReg(R2, 0x68023234)  returns 0x00 (0000ms, 0786ms total)
T1250 036:697 JLINK_WriteReg(R3, 0x08035241)  returns 0x00 (0000ms, 0786ms total)
T1250 036:697 JLINK_WriteReg(R4, 0x5DAF0C1E)  returns 0x00 (0000ms, 0786ms total)
T1250 036:697 JLINK_WriteReg(R5, 0x68023234)  returns 0x00 (0000ms, 0786ms total)
T1250 036:697 JLINK_WriteReg(R6, 0x68023234)  returns 0x00 (0000ms, 0786ms total)
T1250 036:697 JLINK_WriteReg(R7, 0x0000000F)  returns 0x00 (0000ms, 0786ms total)
T1250 036:697 JLINK_WriteReg(R8, 0x0000002D)  returns 0x00 (0000ms, 0786ms total)
T1250 036:697 JLINK_WriteReg(R9, 0x00000001)  returns 0x00 (0000ms, 0786ms total)
T1250 036:697 JLINK_WriteReg(R10, 0x40011000)  returns 0x00 (0000ms, 0786ms total)
T1250 036:697 JLINK_WriteReg(R11, 0x00000000)  returns 0x00 (0000ms, 0786ms total)
T1250 036:697 JLINK_WriteReg(R12, 0x00000008)  returns 0x00 (0000ms, 0786ms total)
T1250 036:697 JLINK_WriteReg(R13, 0x6803FFFC)  returns 0x00 (0000ms, 0786ms total)
T1250 036:697 JLINK_WriteReg(R14, 0xFFFFFFFF)  returns 0x00 (0001ms, 0786ms total)
T1250 036:698 JLINK_WriteReg(R15, 0x080022C0)  returns 0x00 (0000ms, 0787ms total)
T1250 036:698 JLINK_WriteReg(XPSR, 0x01000000)  returns 0x00 (0000ms, 0787ms total)
T1250 036:698 JLINK_WriteReg(MSP, 0x6803FFFC)  returns 0x00 (0000ms, 0787ms total)
T1250 036:698 JLINK_WriteReg(PSP, 0x00000000)  returns 0x00 (0000ms, 0787ms total)
T1250 036:698 JLINK_WriteReg(CFBP, 0x00000000)  returns 0x00 (0000ms, 0787ms total)
T1250 036:698 JLINK_ReadReg(R0)  returns 0x5DAF0C12 (0000ms, 0787ms total)
T1250 036:698 JLINK_ReadReg(R1)  returns 0x5DAF0C0E (0000ms, 0787ms total)
T1250 036:698 JLINK_ReadReg(R2)  returns 0x68023234 (0000ms, 0787ms total)
T1250 036:698 JLINK_ReadReg(R3)  returns 0x08035241 (0000ms, 0787ms total)
T1250 036:698 JLINK_ReadReg(R4)  returns 0x5DAF0C1E (0000ms, 0787ms total)
T1250 036:698 JLINK_ReadReg(R5)  returns 0x68023234 (0000ms, 0787ms total)
T1250 036:698 JLINK_ReadReg(R6)  returns 0x68023234 (0000ms, 0787ms total)
T1250 036:698 JLINK_ReadReg(R7)  returns 0x0000000F (0000ms, 0787ms total)
T1250 036:698 JLINK_ReadReg(R8)  returns 0x0000002D (0000ms, 0787ms total)
T1250 036:698 JLINK_ReadReg(R9)  returns 0x00000001 (0000ms, 0787ms total)
T1250 036:698 JLINK_ReadReg(R10)  returns 0x40011000 (0000ms, 0787ms total)
T1250 036:698 JLINK_ReadReg(R11)  returns 0x00000000 (0000ms, 0787ms total)
T1250 036:698 JLINK_ReadReg(R12)  returns 0x00000008 (0001ms, 0787ms total)
T1250 036:699 JLINK_ReadReg(R14)  returns 0xFFFFFFFF (0000ms, 0788ms total)
T1250 036:699 JLINK_ReadReg(R15)  returns 0x080022C0 (0000ms, 0788ms total)
T1250 036:699 JLINK_ReadReg(XPSR)  returns 0x01000000 (0000ms, 0788ms total)
T1250 036:699 JLINK_ReadReg(CFBP)  returns 0x00000000 (0000ms, 0788ms total)
T1250 036:699 JLINK_ReadReg(MSP)  returns 0x6803FFFC (0000ms, 0788ms total)
T1250 036:699 JLINK_ReadMemU32(0xE0001004, 0x0001 Items, ...) -- CPU_ReadMem(4 bytes @ 0xE0001004) -- Data:  01 00 00 40  returns 0x01 (0001ms, 0788ms total)
T1250 036:706 JLINK_ReadMem (0x080022C0, 0x003C Bytes, ...) -- CPU_ReadMem(64 bytes @ 0x080022C0) -- Updating C cache (64 bytes @ 0x080022C0) -- Read from C cache (60 bytes @ 0x080022C0) -- Data:  FF F7 EA BD 06 48 80 F3 08 88 A0 F5 00 60 80 F3 ...  returns 0x00 (0002ms, 0789ms total)
T1250 036:729 JLINK_ReadMem (0x2000053C, 0x0004 Bytes, ...) -- CPU_ReadMem(64 bytes @ 0x20000500) -- Updating C cache (64 bytes @ 0x20000500) -- Read from C cache (4 bytes @ 0x2000053C) -- Data:  48 05 00 20  returns 0x00 (0002ms, 0791ms total)
T1250 037:139 JLINK_WriteReg(R0, 0x5DAF0C12)  returns 0x00 (0000ms, 0793ms total)
T1250 037:139 JLINK_WriteReg(R1, 0x5DAF0C0E)  returns 0x00 (0000ms, 0793ms total)
T1250 037:139 JLINK_WriteReg(R2, 0x68023234)  returns 0x00 (0000ms, 0793ms total)
T1250 037:139 JLINK_WriteReg(R3, 0x08035241)  returns 0x00 (0000ms, 0793ms total)
T1250 037:139 JLINK_WriteReg(R4, 0x5DAF0C1E)  returns 0x00 (0000ms, 0793ms total)
T1250 037:139 JLINK_WriteReg(R5, 0x68023234)  returns 0x00 (0000ms, 0793ms total)
T1250 037:139 JLINK_WriteReg(R6, 0x68023234)  returns 0x00 (0000ms, 0793ms total)
T1250 037:139 JLINK_WriteReg(R7, 0x0000000F)  returns 0x00 (0000ms, 0793ms total)
T1250 037:139 JLINK_WriteReg(R8, 0x0000002D)  returns 0x00 (0000ms, 0793ms total)
T1250 037:139 JLINK_WriteReg(R9, 0x00000001)  returns 0x00 (0000ms, 0793ms total)
T1250 037:139 JLINK_WriteReg(R10, 0x40011000)  returns 0x00 (0000ms, 0793ms total)
T1250 037:139 JLINK_WriteReg(R11, 0x00000000)  returns 0x00 (0000ms, 0793ms total)
T1250 037:140 JLINK_WriteReg(R12, 0x00000008)  returns 0x00 (0000ms, 0793ms total)
T1250 037:140 JLINK_WriteReg(R13, 0x6803FFFC)  returns 0x00 (0000ms, 0793ms total)
T1250 037:140 JLINK_WriteReg(R14, 0xFFFFFFFF)  returns 0x00 (0000ms, 0793ms total)
T1250 037:140 JLINK_WriteReg(R15, 0x080022C0)  returns 0x00 (0000ms, 0793ms total)
T1250 037:140 JLINK_WriteReg(XPSR, 0x01000000)  returns 0x00 (0000ms, 0793ms total)
T1250 037:140 JLINK_WriteReg(MSP, 0x6803FFFC)  returns 0x00 (0000ms, 0793ms total)
T1250 037:140 JLINK_WriteReg(PSP, 0x00000000)  returns 0x00 (0000ms, 0793ms total)
T1250 037:140 JLINK_WriteReg(CFBP, 0x00000000)  returns 0x00 (0000ms, 0793ms total)
T1250 037:140 JLINK_ReadReg(R0)  returns 0x5DAF0C12 (0000ms, 0793ms total)
T1250 037:140 JLINK_ReadReg(R1)  returns 0x5DAF0C0E (0000ms, 0793ms total)
T1250 037:140 JLINK_ReadReg(R2)  returns 0x68023234 (0000ms, 0793ms total)
T1250 037:140 JLINK_ReadReg(R3)  returns 0x08035241 (0000ms, 0793ms total)
T1250 037:140 JLINK_ReadReg(R4)  returns 0x5DAF0C1E (0000ms, 0793ms total)
T1250 037:140 JLINK_ReadReg(R5)  returns 0x68023234 (0000ms, 0793ms total)
T1250 037:140 JLINK_ReadReg(R6)  returns 0x68023234 (0000ms, 0793ms total)
T1250 037:140 JLINK_ReadReg(R7)  returns 0x0000000F (0000ms, 0793ms total)
T1250 037:140 JLINK_ReadReg(R8)  returns 0x0000002D (0000ms, 0793ms total)
T1250 037:140 JLINK_ReadReg(R9)  returns 0x00000001 (0000ms, 0793ms total)
T1250 037:140 JLINK_ReadReg(R10)  returns 0x40011000 (0000ms, 0793ms total)
T1250 037:140 JLINK_ReadReg(R11)  returns 0x00000000 (0000ms, 0793ms total)
T1250 037:140 JLINK_ReadReg(R12)  returns 0x00000008 (0000ms, 0793ms total)
T1250 037:140 JLINK_ReadReg(R14)  returns 0xFFFFFFFF (0000ms, 0793ms total)
T1250 037:140 JLINK_ReadReg(R15)  returns 0x080022C0 (0000ms, 0793ms total)
T1250 037:140 JLINK_ReadReg(XPSR)  returns 0x01000000 (0000ms, 0793ms total)
T1250 037:140 JLINK_ReadReg(CFBP)  returns 0x00000000 (0000ms, 0793ms total)
T1250 037:140 JLINK_ReadReg(MSP)  returns 0x6803FFFC (0000ms, 0793ms total)
T1250 037:140 JLINK_ReadMemU32(0xE0001004, 0x0001 Items, ...) -- CPU_ReadMem(4 bytes @ 0xE0001004) -- Data:  01 00 00 40  returns 0x01 (0001ms, 0793ms total)
T1304 044:103 JLINK_SetBPEx(Addr = 0x080022DA, Type = 0xFFFFFFF2)  returns 0x00000001 (0000ms, 0794ms total)
T1304 044:103 JLINK_SetBPEx(Addr = 0x08002028, Type = 0xFFFFFFF2)  returns 0x00000002 (0000ms, 0794ms total)
T1304 044:103 JLINK_SetBPEx(Addr = 0x0800202C, Type = 0xFFFFFFF2)  returns 0x00000003 (0000ms, 0794ms total)
T1304 044:103 JLINK_SetBPEx(Addr = 0x080084E8, Type = 0xFFFFFFF2)  returns 0x00000004 (0000ms, 0794ms total)
T1304 044:103 JLINK_SetBPEx(Addr = 0x080022D6, Type = 0xFFFFFFF2)  returns 0x00000005 (0000ms, 0794ms total)
T1304 044:103 JLINK_SetBPEx(Addr = 0x08004394, Type = 0xFFFFFFF2)  returns 0x00000006 (0000ms, 0794ms total)
T1304 044:103 JLINK_Go() -- CPU_WriteMem(4 bytes @ 0xE0002000) -- CPU_WriteMem(4 bytes @ 0xE0002008) -- CPU_WriteMem(4 bytes @ 0xE000200C) -- CPU_WriteMem(4 bytes @ 0xE0002010) -- CPU_WriteMem(4 bytes @ 0xE0002014) -- CPU_WriteMem(4 bytes @ 0xE0002018) -- CPU_WriteMem(4 bytes @ 0xE000201C) (0009ms, 0794ms total)
T1304 044:212 JLINK_IsHalted()  returns TRUE (0008ms, 0803ms total)
T1304 044:220 JLINK_Halt()  returns 0x00 (0000ms, 0803ms total)
T1304 044:220 JLINK_IsHalted()  returns TRUE (0000ms, 0803ms total)
T1304 044:220 JLINK_IsHalted()  returns TRUE (0000ms, 0803ms total)
T1304 044:220 JLINK_IsHalted()  returns TRUE (0000ms, 0803ms total)
T1304 044:220 JLINK_ReadReg(R15)  returns 0x080022D6 (0000ms, 0803ms total)
T1304 044:220 JLINK_ReadReg(XPSR)  returns 0x01000000 (0000ms, 0803ms total)
T1304 044:220 JLINK_ClrBPEx(BPHandle = 0x00000001)  returns 0x00 (0000ms, 0803ms total)
T1304 044:220 JLINK_ClrBPEx(BPHandle = 0x00000002)  returns 0x00 (0000ms, 0803ms total)
T1304 044:220 JLINK_ClrBPEx(BPHandle = 0x00000003)  returns 0x00 (0000ms, 0803ms total)
T1304 044:220 JLINK_ClrBPEx(BPHandle = 0x00000004)  returns 0x00 (0000ms, 0803ms total)
T1304 044:220 JLINK_ClrBPEx(BPHandle = 0x00000005)  returns 0x00 (0000ms, 0803ms total)
T1304 044:220 JLINK_ClrBPEx(BPHandle = 0x00000006)  returns 0x00 (0000ms, 0803ms total)
T1304 044:220 JLINK_ReadMemU32(0xE000ED30, 0x0001 Items, ...) -- CPU_ReadMem(4 bytes @ 0xE000ED30) -- Data:  0B 00 00 00  returns 0x01 (0001ms, 0803ms total)
T1304 044:221 JLINK_ReadMemU32(0xE0001028, 0x0001 Items, ...) -- CPU_ReadMem(4 bytes @ 0xE0001028) -- Data:  01 00 00 40  returns 0x01 (0001ms, 0804ms total)
T1304 044:222 JLINK_ReadMemU32(0xE0001038, 0x0001 Items, ...) -- CPU_ReadMem(4 bytes @ 0xE0001038) -- Data:  01 00 00 40  returns 0x01 (0002ms, 0805ms total)
T1304 044:224 JLINK_ReadMemU32(0xE0001048, 0x0001 Items, ...) -- CPU_ReadMem(4 bytes @ 0xE0001048) -- Data:  01 00 00 40  returns 0x01 (0001ms, 0807ms total)
T1304 044:225 JLINK_ReadMemU32(0xE0001058, 0x0001 Items, ...) -- CPU_ReadMem(4 bytes @ 0xE0001058) -- Data:  01 00 00 40  returns 0x01 (0001ms, 0808ms total)
T1250 044:227 JLINK_ReadReg(R0)  returns 0x6803F7FC (0000ms, 0809ms total)
T1250 044:227 JLINK_ReadReg(R1)  returns 0xA0000010 (0000ms, 0809ms total)
T1250 044:227 JLINK_ReadReg(R2)  returns 0x68023234 (0000ms, 0809ms total)
T1250 044:227 JLINK_ReadReg(R3)  returns 0x08035241 (0000ms, 0809ms total)
T1250 044:227 JLINK_ReadReg(R4)  returns 0x5DAF0C1E (0000ms, 0809ms total)
T1250 044:227 JLINK_ReadReg(R5)  returns 0x68023234 (0000ms, 0809ms total)
T1250 044:227 JLINK_ReadReg(R6)  returns 0x68023234 (0000ms, 0809ms total)
T1250 044:227 JLINK_ReadReg(R7)  returns 0x0000000F (0000ms, 0809ms total)
T1250 044:227 JLINK_ReadReg(R8)  returns 0x0000002D (0000ms, 0809ms total)
T1250 044:227 JLINK_ReadReg(R9)  returns 0x00000001 (0000ms, 0809ms total)
T1250 044:227 JLINK_ReadReg(R10)  returns 0x40011000 (0000ms, 0809ms total)
T1250 044:227 JLINK_ReadReg(R11)  returns 0x00000000 (0000ms, 0809ms total)
T1250 044:227 JLINK_ReadReg(R12)  returns 0x00000008 (0000ms, 0809ms total)
T1250 044:227 JLINK_ReadReg(R14)  returns 0xFFFFFFFF (0000ms, 0809ms total)
T1250 044:227 JLINK_ReadReg(R15)  returns 0x080022D6 (0000ms, 0809ms total)
T1250 044:227 JLINK_ReadReg(XPSR)  returns 0x01000000 (0000ms, 0809ms total)
T1250 044:227 JLINK_ReadReg(CFBP)  returns 0x00000000 (0000ms, 0809ms total)
T1250 044:227 JLINK_ReadReg(MSP)  returns 0x6803FFFC (0000ms, 0809ms total)
T1250 044:228 JLINK_WriteReg(R0, 0x6803F7FC)  returns 0x00 (0000ms, 0809ms total)
T1250 044:228 JLINK_WriteReg(R1, 0xA0000010)  returns 0x00 (0000ms, 0809ms total)
T1250 044:228 JLINK_WriteReg(R2, 0x68023234)  returns 0x00 (0000ms, 0809ms total)
T1250 044:228 JLINK_WriteReg(R3, 0x08035241)  returns 0x00 (0000ms, 0809ms total)
T1250 044:228 JLINK_WriteReg(R4, 0x5DAF0C1E)  returns 0x00 (0000ms, 0809ms total)
T1250 044:228 JLINK_WriteReg(R5, 0x68023234)  returns 0x00 (0000ms, 0809ms total)
T1250 044:228 JLINK_WriteReg(R6, 0x68023234)  returns 0x00 (0000ms, 0809ms total)
T1250 044:228 JLINK_WriteReg(R7, 0x0000000F)  returns 0x00 (0000ms, 0809ms total)
T1250 044:228 JLINK_WriteReg(R8, 0x0000002D)  returns 0x00 (0000ms, 0809ms total)
T1250 044:228 JLINK_WriteReg(R9, 0x00000001)  returns 0x00 (0000ms, 0809ms total)
T1250 044:228 JLINK_WriteReg(R10, 0x40011000)  returns 0x00 (0000ms, 0809ms total)
T1250 044:228 JLINK_WriteReg(R11, 0x00000000)  returns 0x00 (0000ms, 0809ms total)
T1250 044:228 JLINK_WriteReg(R12, 0x00000008)  returns 0x00 (0000ms, 0809ms total)
T1250 044:228 JLINK_WriteReg(R13, 0x6803FFFC)  returns 0x00 (0000ms, 0809ms total)
T1250 044:228 JLINK_WriteReg(R14, 0xFFFFFFFF)  returns 0x00 (0000ms, 0809ms total)
T1250 044:228 JLINK_WriteReg(R15, 0x080022D6)  returns 0x00 (0000ms, 0809ms total)
T1250 044:228 JLINK_WriteReg(XPSR, 0x01000000)  returns 0x00 (0000ms, 0809ms total)
T1250 044:228 JLINK_WriteReg(MSP, 0x6803FFFC)  returns 0x00 (0000ms, 0809ms total)
T1250 044:228 JLINK_WriteReg(PSP, 0x00000000)  returns 0x00 (0000ms, 0809ms total)
T1250 044:228 JLINK_WriteReg(CFBP, 0x00000000)  returns 0x00 (0000ms, 0809ms total)
T1250 044:228 JLINK_ReadReg(R0)  returns 0x6803F7FC (0000ms, 0809ms total)
T1250 044:228 JLINK_ReadReg(R1)  returns 0xA0000010 (0000ms, 0809ms total)
T1250 044:228 JLINK_ReadReg(R2)  returns 0x68023234 (0000ms, 0809ms total)
T1250 044:228 JLINK_ReadReg(R3)  returns 0x08035241 (0000ms, 0809ms total)
T1250 044:228 JLINK_ReadReg(R4)  returns 0x5DAF0C1E (0000ms, 0809ms total)
T1250 044:228 JLINK_ReadReg(R5)  returns 0x68023234 (0000ms, 0809ms total)
T1250 044:228 JLINK_ReadReg(R6)  returns 0x68023234 (0000ms, 0809ms total)
T1250 044:228 JLINK_ReadReg(R7)  returns 0x0000000F (0000ms, 0809ms total)
T1250 044:228 JLINK_ReadReg(R8)  returns 0x0000002D (0000ms, 0809ms total)
T1250 044:228 JLINK_ReadReg(R9)  returns 0x00000001 (0000ms, 0809ms total)
T1250 044:228 JLINK_ReadReg(R10)  returns 0x40011000 (0000ms, 0809ms total)
T1250 044:228 JLINK_ReadReg(R11)  returns 0x00000000 (0000ms, 0809ms total)
T1250 044:228 JLINK_ReadReg(R12)  returns 0x00000008 (0000ms, 0809ms total)
T1250 044:228 JLINK_ReadReg(R14)  returns 0xFFFFFFFF (0000ms, 0809ms total)
T1250 044:228 JLINK_ReadReg(R15)  returns 0x080022D6 (0000ms, 0809ms total)
T1250 044:228 JLINK_ReadReg(XPSR)  returns 0x01000000 (0000ms, 0809ms total)
T1250 044:228 JLINK_ReadReg(CFBP)  returns 0x00000000 (0001ms, 0809ms total)
T1250 044:229 JLINK_ReadReg(MSP)  returns 0x6803FFFC (0000ms, 0810ms total)
T1250 044:229 JLINK_ReadMemU32(0xE0001004, 0x0001 Items, ...) -- CPU_ReadMem(4 bytes @ 0xE0001004) -- Data:  01 00 00 40  returns 0x01 (0001ms, 0810ms total)
T1304 045:177 JLINK_Step() -- CPU_ReadMem(64 bytes @ 0x080022C0) -- Updating C cache (64 bytes @ 0x080022C0) -- Read from C cache (2 bytes @ 0x080022D6) -- Not simulated -- CPU_WriteMem(4 bytes @ 0xE0002008) -- CPU_WriteMem(4 bytes @ 0xE000200C) -- CPU_WriteMem(4 bytes @ 0xE0002010) -- CPU_WriteMem(4 bytes @ 0xE0002014) -- CPU_WriteMem(4 bytes @ 0xE0002018) -- CPU_WriteMem(4 bytes @ 0xE000201C)  returns 0x00 (0021ms, 0811ms total)
T1304 045:198 JLINK_ReadReg(R15)  returns 0x08001E66 (0000ms, 0832ms total)
T1304 045:198 JLINK_ReadReg(XPSR)  returns 0x01000000 (0000ms, 0832ms total)
T1304 045:198 JLINK_SetBPEx(Addr = 0x080022DA, Type = 0xFFFFFFF2)  returns 0x00000007 (0000ms, 0832ms total)
T1304 045:198 JLINK_SetBPEx(Addr = 0x08002028, Type = 0xFFFFFFF2)  returns 0x00000008 (0000ms, 0832ms total)
T1304 045:198 JLINK_SetBPEx(Addr = 0x0800202C, Type = 0xFFFFFFF2)  returns 0x00000009 (0000ms, 0832ms total)
T1304 045:198 JLINK_SetBPEx(Addr = 0x080084E8, Type = 0xFFFFFFF2)  returns 0x0000000A (0000ms, 0832ms total)
T1304 045:198 JLINK_SetBPEx(Addr = 0x080022D6, Type = 0xFFFFFFF2)  returns 0x0000000B (0000ms, 0832ms total)
T1304 045:198 JLINK_SetBPEx(Addr = 0x08004394, Type = 0xFFFFFFF2)  returns 0x0000000C (0000ms, 0832ms total)
T1304 045:198 JLINK_Go() -- CPU_WriteMem(4 bytes @ 0xE0002008) -- CPU_WriteMem(4 bytes @ 0xE000200C) -- CPU_WriteMem(4 bytes @ 0xE0002010) -- CPU_WriteMem(4 bytes @ 0xE0002014) -- CPU_WriteMem(4 bytes @ 0xE0002018) -- CPU_WriteMem(4 bytes @ 0xE000201C) (0007ms, 0832ms total)
T1304 045:305 JLINK_IsHalted()  returns TRUE (0006ms, 0839ms total)
T1304 045:311 JLINK_Halt()  returns 0x00 (0000ms, 0839ms total)
T1304 045:311 JLINK_IsHalted()  returns TRUE (0000ms, 0839ms total)
T1304 045:311 JLINK_IsHalted()  returns TRUE (0000ms, 0839ms total)
T1304 045:311 JLINK_IsHalted()  returns TRUE (0000ms, 0839ms total)
T1304 045:311 JLINK_ReadReg(R15)  returns 0x080022DA (0000ms, 0839ms total)
T1304 045:311 JLINK_ReadReg(XPSR)  returns 0x61000000 (0000ms, 0839ms total)
T1304 045:311 JLINK_ClrBPEx(BPHandle = 0x00000007)  returns 0x00 (0000ms, 0839ms total)
T1304 045:311 JLINK_ClrBPEx(BPHandle = 0x00000008)  returns 0x00 (0000ms, 0839ms total)
T1304 045:311 JLINK_ClrBPEx(BPHandle = 0x00000009)  returns 0x00 (0001ms, 0839ms total)
T1304 045:312 JLINK_ClrBPEx(BPHandle = 0x0000000A)  returns 0x00 (0000ms, 0840ms total)
T1304 045:312 JLINK_ClrBPEx(BPHandle = 0x0000000B)  returns 0x00 (0000ms, 0840ms total)
T1304 045:312 JLINK_ClrBPEx(BPHandle = 0x0000000C)  returns 0x00 (0000ms, 0840ms total)
T1304 045:312 JLINK_ReadMemU32(0xE000ED30, 0x0001 Items, ...) -- CPU_ReadMem(4 bytes @ 0xE000ED30) -- Data:  0B 00 00 00  returns 0x01 (0001ms, 0840ms total)
T1304 045:313 JLINK_ReadMemU32(0xE0001028, 0x0001 Items, ...) -- CPU_ReadMem(4 bytes @ 0xE0001028) -- Data:  01 00 00 40  returns 0x01 (0002ms, 0841ms total)
T1304 045:315 JLINK_ReadMemU32(0xE0001038, 0x0001 Items, ...) -- CPU_ReadMem(4 bytes @ 0xE0001038) -- Data:  01 00 00 40  returns 0x01 (0001ms, 0843ms total)
T1304 045:316 JLINK_ReadMemU32(0xE0001048, 0x0001 Items, ...) -- CPU_ReadMem(4 bytes @ 0xE0001048) -- Data:  01 00 00 40  returns 0x01 (0001ms, 0844ms total)
T1304 045:317 JLINK_ReadMemU32(0xE0001058, 0x0001 Items, ...) -- CPU_ReadMem(4 bytes @ 0xE0001058) -- Data:  01 00 00 40  returns 0x01 (0001ms, 0845ms total)
T1250 045:320 JLINK_ReadReg(R0)  returns 0x00000001 (0000ms, 0846ms total)
T1250 045:321 JLINK_ReadReg(R1)  returns 0x000000FB (0000ms, 0846ms total)
T1250 045:321 JLINK_ReadReg(R2)  returns 0x00000008 (0000ms, 0846ms total)
T1250 045:321 JLINK_ReadReg(R3)  returns 0x40021000 (0000ms, 0846ms total)
T1250 045:321 JLINK_ReadReg(R4)  returns 0x5DAF0C1E (0000ms, 0846ms total)
T1250 045:321 JLINK_ReadReg(R5)  returns 0x68023234 (0000ms, 0846ms total)
T1250 045:321 JLINK_ReadReg(R6)  returns 0x68023234 (0000ms, 0846ms total)
T1250 045:321 JLINK_ReadReg(R7)  returns 0x0000000F (0000ms, 0846ms total)
T1250 045:321 JLINK_ReadReg(R8)  returns 0x0000002D (0000ms, 0846ms total)
T1250 045:321 JLINK_ReadReg(R9)  returns 0x00000001 (0000ms, 0846ms total)
T1250 045:321 JLINK_ReadReg(R10)  returns 0x40011000 (0000ms, 0846ms total)
T1250 045:321 JLINK_ReadReg(R11)  returns 0x00000000 (0000ms, 0846ms total)
T1250 045:321 JLINK_ReadReg(R12)  returns 0x00000000 (0000ms, 0846ms total)
T1250 045:321 JLINK_ReadReg(R14)  returns 0x08002BDF (0000ms, 0846ms total)
T1250 045:321 JLINK_ReadReg(R15)  returns 0x080022DA (0000ms, 0846ms total)
T1250 045:321 JLINK_ReadReg(XPSR)  returns 0x61000000 (0000ms, 0846ms total)
T1250 045:321 JLINK_ReadReg(CFBP)  returns 0x00000000 (0000ms, 0846ms total)
T1250 045:321 JLINK_ReadReg(MSP)  returns 0x6803FFFC (0000ms, 0846ms total)
T1250 045:322 JLINK_WriteReg(R0, 0x00000001)  returns 0x00 (0000ms, 0846ms total)
T1250 045:322 JLINK_WriteReg(R1, 0x000000FB)  returns 0x00 (0000ms, 0846ms total)
T1250 045:322 JLINK_WriteReg(R2, 0x00000008)  returns 0x00 (0000ms, 0846ms total)
T1250 045:322 JLINK_WriteReg(R3, 0x40021000)  returns 0x00 (0000ms, 0846ms total)
T1250 045:322 JLINK_WriteReg(R4, 0x5DAF0C1E)  returns 0x00 (0000ms, 0846ms total)
T1250 045:322 JLINK_WriteReg(R5, 0x68023234)  returns 0x00 (0000ms, 0846ms total)
T1250 045:323 JLINK_WriteReg(R6, 0x68023234)  returns 0x00 (0000ms, 0847ms total)
T1250 045:323 JLINK_WriteReg(R7, 0x0000000F)  returns 0x00 (0000ms, 0847ms total)
T1250 045:323 JLINK_WriteReg(R8, 0x0000002D)  returns 0x00 (0000ms, 0847ms total)
T1250 045:323 JLINK_WriteReg(R9, 0x00000001)  returns 0x00 (0000ms, 0847ms total)
T1250 045:323 JLINK_WriteReg(R10, 0x40011000)  returns 0x00 (0000ms, 0847ms total)
T1250 045:323 JLINK_WriteReg(R11, 0x00000000)  returns 0x00 (0000ms, 0847ms total)
T1250 045:323 JLINK_WriteReg(R12, 0x00000000)  returns 0x00 (0000ms, 0847ms total)
T1250 045:323 JLINK_WriteReg(R13, 0x6803FFFC)  returns 0x00 (0000ms, 0847ms total)
T1250 045:323 JLINK_WriteReg(R14, 0x08002BDF)  returns 0x00 (0000ms, 0847ms total)
T1250 045:323 JLINK_WriteReg(R15, 0x080022DA)  returns 0x00 (0000ms, 0847ms total)
T1250 045:323 JLINK_WriteReg(XPSR, 0x61000000)  returns 0x00 (0000ms, 0847ms total)
T1250 045:323 JLINK_WriteReg(MSP, 0x6803FFFC)  returns 0x00 (0000ms, 0847ms total)
T1250 045:323 JLINK_WriteReg(PSP, 0x00000000)  returns 0x00 (0000ms, 0847ms total)
T1250 045:323 JLINK_WriteReg(CFBP, 0x00000000)  returns 0x00 (0000ms, 0847ms total)
T1250 045:323 JLINK_ReadReg(R0)  returns 0x00000001 (0000ms, 0847ms total)
T1250 045:323 JLINK_ReadReg(R1)  returns 0x000000FB (0000ms, 0847ms total)
T1250 045:323 JLINK_ReadReg(R2)  returns 0x00000008 (0000ms, 0847ms total)
T1250 045:323 JLINK_ReadReg(R3)  returns 0x40021000 (0000ms, 0847ms total)
T1250 045:323 JLINK_ReadReg(R4)  returns 0x5DAF0C1E (0001ms, 0847ms total)
T1250 045:324 JLINK_ReadReg(R5)  returns 0x68023234 (0000ms, 0848ms total)
T1250 045:324 JLINK_ReadReg(R6)  returns 0x68023234 (0000ms, 0848ms total)
T1250 045:324 JLINK_ReadReg(R7)  returns 0x0000000F (0000ms, 0848ms total)
T1250 045:324 JLINK_ReadReg(R8)  returns 0x0000002D (0000ms, 0848ms total)
T1250 045:324 JLINK_ReadReg(R9)  returns 0x00000001 (0000ms, 0848ms total)
T1250 045:324 JLINK_ReadReg(R10)  returns 0x40011000 (0000ms, 0848ms total)
T1250 045:324 JLINK_ReadReg(R11)  returns 0x00000000 (0000ms, 0848ms total)
T1250 045:324 JLINK_ReadReg(R12)  returns 0x00000000 (0000ms, 0848ms total)
T1250 045:324 JLINK_ReadReg(R14)  returns 0x08002BDF (0000ms, 0848ms total)
T1250 045:324 JLINK_ReadReg(R15)  returns 0x080022DA (0000ms, 0848ms total)
T1250 045:324 JLINK_ReadReg(XPSR)  returns 0x61000000 (0000ms, 0848ms total)
T1250 045:324 JLINK_ReadReg(CFBP)  returns 0x00000000 (0000ms, 0848ms total)
T1250 045:324 JLINK_ReadReg(MSP)  returns 0x6803FFFC (0000ms, 0848ms total)
T1250 045:324 JLINK_ReadMemU32(0xE0001004, 0x0001 Items, ...) -- CPU_ReadMem(4 bytes @ 0xE0001004) -- Data:  01 00 00 40  returns 0x01 (0001ms, 0848ms total)
T1250 045:332 JLINK_ReadMem (0x080022DA, 0x0002 Bytes, ...) -- CPU_ReadMem(64 bytes @ 0x080022C0) -- Updating C cache (64 bytes @ 0x080022C0) -- Read from C cache (2 bytes @ 0x080022DA) -- Data:  FF F7  returns 0x00 (0002ms, 0849ms total)
T1250 045:334 JLINK_ReadMem (0x080022DC, 0x003C Bytes, ...) -- CPU_ReadMem(64 bytes @ 0x08002300) -- Updating C cache (64 bytes @ 0x08002300) -- Read from C cache (60 bytes @ 0x080022DC) -- Data:  41 BE 00 00 FC FF 03 68 99 B1 10 28 08 D1 4F F0 ...  returns 0x00 (0002ms, 0851ms total)
T1304 046:105 JLINK_Step() -- Read from C cache (2 bytes @ 0x080022DA) -- Not simulated -- CPU_WriteMem(4 bytes @ 0xE0002008) -- CPU_WriteMem(4 bytes @ 0xE000200C) -- CPU_WriteMem(4 bytes @ 0xE0002010) -- CPU_WriteMem(4 bytes @ 0xE0002014) -- CPU_WriteMem(4 bytes @ 0xE0002018) -- CPU_WriteMem(4 bytes @ 0xE000201C)  returns 0x00 (0015ms, 0853ms total)
T1304 046:121 JLINK_ReadReg(R15)  returns 0x08001F60 (0000ms, 0868ms total)
T1304 046:121 JLINK_ReadReg(XPSR)  returns 0x61000000 (0000ms, 0868ms total)
T1304 046:121 JLINK_SetBPEx(Addr = 0x080022DA, Type = 0xFFFFFFF2)  returns 0x0000000D (0000ms, 0868ms total)
T1304 046:121 JLINK_SetBPEx(Addr = 0x08002028, Type = 0xFFFFFFF2)  returns 0x0000000E (0000ms, 0868ms total)
T1304 046:121 JLINK_SetBPEx(Addr = 0x0800202C, Type = 0xFFFFFFF2)  returns 0x0000000F (0000ms, 0868ms total)
T1304 046:121 JLINK_SetBPEx(Addr = 0x080084E8, Type = 0xFFFFFFF2)  returns 0x00000010 (0000ms, 0868ms total)
T1304 046:121 JLINK_SetBPEx(Addr = 0x080022D6, Type = 0xFFFFFFF2)  returns 0x00000011 (0000ms, 0868ms total)
T1304 046:121 JLINK_SetBPEx(Addr = 0x08004394, Type = 0xFFFFFFF2)  returns 0x00000012 (0000ms, 0868ms total)
T1304 046:121 JLINK_Go() -- CPU_WriteMem(4 bytes @ 0xE0002008) -- CPU_WriteMem(4 bytes @ 0xE000200C) -- CPU_WriteMem(4 bytes @ 0xE0002010) -- CPU_WriteMem(4 bytes @ 0xE0002014) -- CPU_WriteMem(4 bytes @ 0xE0002018) -- CPU_WriteMem(4 bytes @ 0xE000201C) (0007ms, 0868ms total)
T1304 046:228 JLINK_IsHalted()  returns TRUE (0006ms, 0875ms total)
T1304 046:234 JLINK_Halt()  returns 0x00 (0000ms, 0875ms total)
T1304 046:234 JLINK_IsHalted()  returns TRUE (0001ms, 0875ms total)
T1304 046:235 JLINK_IsHalted()  returns TRUE (0000ms, 0875ms total)
T1304 046:235 JLINK_IsHalted()  returns TRUE (0000ms, 0875ms total)
T1304 046:235 JLINK_ReadReg(R15)  returns 0x08002028 (0000ms, 0875ms total)
T1304 046:235 JLINK_ReadReg(XPSR)  returns 0x21000000 (0000ms, 0875ms total)
T1304 046:235 JLINK_ClrBPEx(BPHandle = 0x0000000D)  returns 0x00 (0000ms, 0875ms total)
T1304 046:235 JLINK_ClrBPEx(BPHandle = 0x0000000E)  returns 0x00 (0000ms, 0875ms total)
T1304 046:235 JLINK_ClrBPEx(BPHandle = 0x0000000F)  returns 0x00 (0000ms, 0875ms total)
T1304 046:235 JLINK_ClrBPEx(BPHandle = 0x00000010)  returns 0x00 (0000ms, 0875ms total)
T1304 046:235 JLINK_ClrBPEx(BPHandle = 0x00000011)  returns 0x00 (0000ms, 0875ms total)
T1304 046:235 JLINK_ClrBPEx(BPHandle = 0x00000012)  returns 0x00 (0000ms, 0875ms total)
T1304 046:235 JLINK_ReadMemU32(0xE000ED30, 0x0001 Items, ...) -- CPU_ReadMem(4 bytes @ 0xE000ED30) -- Data:  0B 00 00 00  returns 0x01 (0001ms, 0875ms total)
T1304 046:236 JLINK_ReadMemU32(0xE0001028, 0x0001 Items, ...) -- CPU_ReadMem(4 bytes @ 0xE0001028) -- Data:  01 00 00 40  returns 0x01 (0002ms, 0876ms total)
T1304 046:238 JLINK_ReadMemU32(0xE0001038, 0x0001 Items, ...) -- CPU_ReadMem(4 bytes @ 0xE0001038) -- Data:  01 00 00 40  returns 0x01 (0001ms, 0878ms total)
T1304 046:239 JLINK_ReadMemU32(0xE0001048, 0x0001 Items, ...) -- CPU_ReadMem(4 bytes @ 0xE0001048) -- Data:  01 00 00 40  returns 0x01 (0001ms, 0879ms total)
T1304 046:240 JLINK_ReadMemU32(0xE0001058, 0x0001 Items, ...) -- CPU_ReadMem(4 bytes @ 0xE0001058) -- Data:  01 00 00 40  returns 0x01 (0002ms, 0880ms total)
T1250 046:245 JLINK_ReadReg(R0)  returns 0x00000000 (0000ms, 0882ms total)
T1250 046:245 JLINK_ReadReg(R1)  returns 0x00000001 (0000ms, 0882ms total)
T1250 046:245 JLINK_ReadReg(R2)  returns 0x00000001 (0000ms, 0882ms total)
T1250 046:245 JLINK_ReadReg(R3)  returns 0x00000000 (0000ms, 0882ms total)
T1250 046:245 JLINK_ReadReg(R4)  returns 0x5DAF0C1E (0000ms, 0882ms total)
T1250 046:245 JLINK_ReadReg(R5)  returns 0x68023234 (0000ms, 0882ms total)
T1250 046:245 JLINK_ReadReg(R6)  returns 0x68023234 (0000ms, 0882ms total)
T1250 046:245 JLINK_ReadReg(R7)  returns 0x0000000F (0000ms, 0882ms total)
T1250 046:245 JLINK_ReadReg(R8)  returns 0x0000002D (0000ms, 0882ms total)
T1250 046:245 JLINK_ReadReg(R9)  returns 0x00000001 (0000ms, 0882ms total)
T1250 046:245 JLINK_ReadReg(R10)  returns 0x40011000 (0000ms, 0882ms total)
T1250 046:245 JLINK_ReadReg(R11)  returns 0x00000000 (0000ms, 0882ms total)
T1250 046:245 JLINK_ReadReg(R12)  returns 0x00000000 (0000ms, 0882ms total)
T1250 046:245 JLINK_ReadReg(R14)  returns 0x08002029 (0000ms, 0882ms total)
T1250 046:246 JLINK_ReadReg(R15)  returns 0x08002028 (0000ms, 0883ms total)
T1250 046:246 JLINK_ReadReg(XPSR)  returns 0x21000000 (0000ms, 0883ms total)
T1250 046:246 JLINK_ReadReg(CFBP)  returns 0x00000000 (0000ms, 0883ms total)
T1250 046:246 JLINK_ReadReg(MSP)  returns 0x6803FFEC (0000ms, 0883ms total)
T1250 046:246 JLINK_ReadMem (0x6803FFF8, 0x0004 Bytes, ...) -- CPU_ReadMem(4 bytes @ 0x6803FFF8) -- Data:  DF 2B 00 08  returns 0x00 (0002ms, 0883ms total)
T1250 046:249 JLINK_ReadMem (0x68040000, 0x0004 Bytes, ...) -- CPU_ReadMem(4 bytes @ 0x68040000) -- Data:  00 00 00 00  returns 0x00 (0001ms, 0885ms total)
T1250 046:251 JLINK_WriteReg(R0, 0x00000000)  returns 0x00 (0000ms, 0886ms total)
T1250 046:251 JLINK_WriteReg(R1, 0x00000001)  returns 0x00 (0000ms, 0886ms total)
T1250 046:251 JLINK_WriteReg(R2, 0x00000001)  returns 0x00 (0000ms, 0886ms total)
T1250 046:251 JLINK_WriteReg(R3, 0x00000000)  returns 0x00 (0000ms, 0886ms total)
T1250 046:251 JLINK_WriteReg(R4, 0x5DAF0C1E)  returns 0x00 (0000ms, 0886ms total)
T1250 046:251 JLINK_WriteReg(R5, 0x68023234)  returns 0x00 (0000ms, 0886ms total)
T1250 046:251 JLINK_WriteReg(R6, 0x68023234)  returns 0x00 (0000ms, 0886ms total)
T1250 046:251 JLINK_WriteReg(R7, 0x0000000F)  returns 0x00 (0000ms, 0886ms total)
T1250 046:251 JLINK_WriteReg(R8, 0x0000002D)  returns 0x00 (0000ms, 0886ms total)
T1250 046:251 JLINK_WriteReg(R9, 0x00000001)  returns 0x00 (0000ms, 0886ms total)
T1250 046:251 JLINK_WriteReg(R10, 0x40011000)  returns 0x00 (0000ms, 0886ms total)
T1250 046:251 JLINK_WriteReg(R11, 0x00000000)  returns 0x00 (0000ms, 0886ms total)
T1250 046:251 JLINK_WriteReg(R12, 0x00000000)  returns 0x00 (0000ms, 0886ms total)
T1250 046:251 JLINK_WriteReg(R13, 0x6803FFEC)  returns 0x00 (0000ms, 0886ms total)
T1250 046:251 JLINK_WriteReg(R14, 0x08002029)  returns 0x00 (0000ms, 0886ms total)
T1250 046:251 JLINK_WriteReg(R15, 0x08002028)  returns 0x00 (0000ms, 0886ms total)
T1250 046:251 JLINK_WriteReg(XPSR, 0x21000000)  returns 0x00 (0000ms, 0886ms total)
T1250 046:251 JLINK_WriteReg(MSP, 0x6803FFEC)  returns 0x00 (0001ms, 0886ms total)
T1250 046:252 JLINK_WriteReg(PSP, 0x00000000)  returns 0x00 (0000ms, 0887ms total)
T1250 046:252 JLINK_WriteReg(CFBP, 0x00000000)  returns 0x00 (0000ms, 0887ms total)
T1250 046:252 JLINK_ReadReg(R0)  returns 0x00000000 (0000ms, 0887ms total)
T1250 046:252 JLINK_ReadReg(R1)  returns 0x00000001 (0000ms, 0887ms total)
T1250 046:252 JLINK_ReadReg(R2)  returns 0x00000001 (0000ms, 0887ms total)
T1250 046:252 JLINK_ReadReg(R3)  returns 0x00000000 (0000ms, 0887ms total)
T1250 046:252 JLINK_ReadReg(R4)  returns 0x5DAF0C1E (0000ms, 0887ms total)
T1250 046:252 JLINK_ReadReg(R5)  returns 0x68023234 (0000ms, 0887ms total)
T1250 046:252 JLINK_ReadReg(R6)  returns 0x68023234 (0000ms, 0887ms total)
T1250 046:252 JLINK_ReadReg(R7)  returns 0x0000000F (0000ms, 0887ms total)
T1250 046:252 JLINK_ReadReg(R8)  returns 0x0000002D (0000ms, 0887ms total)
T1250 046:252 JLINK_ReadReg(R9)  returns 0x00000001 (0000ms, 0887ms total)
T1250 046:252 JLINK_ReadReg(R10)  returns 0x40011000 (0000ms, 0887ms total)
T1250 046:252 JLINK_ReadReg(R11)  returns 0x00000000 (0000ms, 0887ms total)
T1250 046:252 JLINK_ReadReg(R12)  returns 0x00000000 (0000ms, 0887ms total)
T1250 046:252 JLINK_ReadReg(R14)  returns 0x08002029 (0000ms, 0887ms total)
T1250 046:252 JLINK_ReadReg(R15)  returns 0x08002028 (0000ms, 0887ms total)
T1250 046:252 JLINK_ReadReg(XPSR)  returns 0x21000000 (0001ms, 0887ms total)
T1250 046:253 JLINK_ReadReg(CFBP)  returns 0x00000000 (0000ms, 0888ms total)
T1250 046:253 JLINK_ReadReg(MSP)  returns 0x6803FFEC (0000ms, 0888ms total)
T1250 046:253 JLINK_ReadMemU32(0xE0001004, 0x0001 Items, ...) -- CPU_ReadMem(4 bytes @ 0xE0001004) -- Data:  01 00 00 40  returns 0x01 (0001ms, 0888ms total)
T1250 046:358 JLINK_ReadMem (0x08002028, 0x003C Bytes, ...) -- CPU_ReadMem(128 bytes @ 0x08002000) -- Updating C cache (128 bytes @ 0x08002000) -- Read from C cache (60 bytes @ 0x08002028) -- Data:  04 F0 B8 FA 32 A0 3E F0 9A FA 3A A0 38 F0 E4 FB ...  returns 0x00 (0003ms, 0889ms total)
T1304 047:543 JLINK_Step() -- Read from C cache (2 bytes @ 0x08002028) -- Not simulated -- CPU_WriteMem(4 bytes @ 0xE0002008) -- CPU_WriteMem(4 bytes @ 0xE000200C) -- CPU_WriteMem(4 bytes @ 0xE0002010) -- CPU_WriteMem(4 bytes @ 0xE0002014) -- CPU_WriteMem(4 bytes @ 0xE0002018) -- CPU_WriteMem(4 bytes @ 0xE000201C)  returns 0x00 (0013ms, 0892ms total)
T1304 047:556 JLINK_ReadReg(R15)  returns 0x0800659C (0000ms, 0905ms total)
T1304 047:556 JLINK_ReadReg(XPSR)  returns 0x21000000 (0000ms, 0905ms total)
T1304 047:556 JLINK_SetBPEx(Addr = 0x080022DA, Type = 0xFFFFFFF2)  returns 0x00000013 (0000ms, 0905ms total)
T1304 047:556 JLINK_SetBPEx(Addr = 0x08002028, Type = 0xFFFFFFF2)  returns 0x00000014 (0000ms, 0905ms total)
T1304 047:556 JLINK_SetBPEx(Addr = 0x0800202C, Type = 0xFFFFFFF2)  returns 0x00000015 (0000ms, 0905ms total)
T1304 047:556 JLINK_SetBPEx(Addr = 0x080084E8, Type = 0xFFFFFFF2)  returns 0x00000016 (0000ms, 0905ms total)
T1304 047:556 JLINK_SetBPEx(Addr = 0x080022D6, Type = 0xFFFFFFF2)  returns 0x00000017 (0000ms, 0905ms total)
T1304 047:556 JLINK_SetBPEx(Addr = 0x08004394, Type = 0xFFFFFFF2)  returns 0x00000018 (0000ms, 0905ms total)
T1304 047:556 JLINK_Go() -- CPU_WriteMem(4 bytes @ 0xE0002008) -- CPU_WriteMem(4 bytes @ 0xE000200C) -- CPU_WriteMem(4 bytes @ 0xE0002010) -- CPU_WriteMem(4 bytes @ 0xE0002014) -- CPU_WriteMem(4 bytes @ 0xE0002018) -- CPU_WriteMem(4 bytes @ 0xE000201C) (0007ms, 0905ms total)
T1304 047:663 JLINK_IsHalted()  returns FALSE (0001ms, 0912ms total)
T1304 047:764 JLINK_IsHalted()  returns FALSE (0001ms, 0912ms total)
T1304 047:865 JLINK_IsHalted()  returns FALSE (0001ms, 0912ms total)
T1304 047:967 JLINK_IsHalted()  returns FALSE (0001ms, 0912ms total)
T1304 048:068 JLINK_ReadMemU32(0xE0001004, 0x0001 Items, ...) -- CPU is running -- CPU_ReadMem(4 bytes @ 0xE0001004) -- Data:  01 00 00 40  returns 0x01 (0000ms, 0912ms total)
T1304 048:069 JLINK_IsHalted()  returns FALSE (0000ms, 0912ms total)
T1304 048:169 JLINK_IsHalted()  returns FALSE (0001ms, 0912ms total)
T1304 048:270 JLINK_IsHalted()  returns FALSE (0001ms, 0912ms total)
T1304 048:371 JLINK_IsHalted()  returns FALSE (0001ms, 0912ms total)
T1304 048:472 JLINK_IsHalted()  returns FALSE (0001ms, 0912ms total)
T1304 048:573 JLINK_IsHalted()  returns FALSE (0002ms, 0912ms total)
T1304 048:675 JLINK_ReadMemU32(0xE0001004, 0x0001 Items, ...) -- CPU is running -- CPU_ReadMem(4 bytes @ 0xE0001004) -- Data:  01 00 00 40  returns 0x01 (0001ms, 0912ms total)
T1304 048:676 JLINK_IsHalted()  returns FALSE (0001ms, 0913ms total)
T1304 048:777 JLINK_IsHalted()  returns FALSE (0001ms, 0913ms total)
T1304 048:878 JLINK_IsHalted()  returns FALSE (0001ms, 0913ms total)
T1304 048:979 JLINK_IsHalted()  returns FALSE (0000ms, 0913ms total)
T1304 049:079 JLINK_IsHalted()  returns FALSE (0001ms, 0913ms total)
T1304 049:180 JLINK_ReadMemU32(0xE0001004, 0x0001 Items, ...) -- CPU is running -- CPU_ReadMem(4 bytes @ 0xE0001004) -- Data:  01 00 00 40  returns 0x01 (0001ms, 0913ms total)
T1304 049:181 JLINK_IsHalted()  returns FALSE (0001ms, 0914ms total)
T1304 049:282 JLINK_IsHalted()  returns FALSE (0001ms, 0914ms total)
T1304 049:383 JLINK_IsHalted()  returns FALSE (0001ms, 0914ms total)
T1304 049:484 JLINK_IsHalted()  returns FALSE (0001ms, 0914ms total)
T1304 049:585 JLINK_IsHalted()  returns FALSE (0001ms, 0914ms total)
T1304 049:686 JLINK_IsHalted()  returns FALSE (0001ms, 0914ms total)
T1304 049:787 JLINK_ReadMemU32(0xE0001004, 0x0001 Items, ...) -- CPU is running -- CPU_ReadMem(4 bytes @ 0xE0001004) -- Data:  01 00 00 40  returns 0x01 (0001ms, 0914ms total)
T1304 049:788 JLINK_IsHalted()  returns FALSE (0001ms, 0915ms total)
T1304 049:889 JLINK_IsHalted()  returns FALSE (0001ms, 0915ms total)
T1304 049:990 JLINK_IsHalted()  returns FALSE (0001ms, 0915ms total)
T1304 050:091 JLINK_IsHalted()  returns FALSE (0001ms, 0915ms total)
T1304 050:192 JLINK_IsHalted()  returns FALSE (0001ms, 0915ms total)
T1304 050:293 JLINK_IsHalted()  returns FALSE (0001ms, 0915ms total)
T1304 050:394 JLINK_ReadMemU32(0xE0001004, 0x0001 Items, ...) -- CPU is running -- CPU_ReadMem(4 bytes @ 0xE0001004) -- Data:  01 00 00 40  returns 0x01 (0001ms, 0915ms total)
T1304 050:398 JLINK_IsHalted()  returns FALSE (0001ms, 0916ms total)
T1304 050:499 JLINK_IsHalted()  returns FALSE (0001ms, 0916ms total)
T1304 050:600 JLINK_IsHalted()  returns FALSE (0001ms, 0916ms total)
T1304 050:701 JLINK_IsHalted()  returns FALSE (0001ms, 0916ms total)
T1304 050:802 JLINK_IsHalted()  returns FALSE (0001ms, 0916ms total)
T1304 050:903 JLINK_IsHalted()  returns FALSE (0001ms, 0916ms total)
T1304 051:004 JLINK_ReadMemU32(0xE0001004, 0x0001 Items, ...) -- CPU is running -- CPU_ReadMem(4 bytes @ 0xE0001004) -- Data:  01 00 00 40  returns 0x01 (0001ms, 0916ms total)
T1304 051:005 JLINK_IsHalted()  returns FALSE (0001ms, 0917ms total)
T1304 051:106 JLINK_IsHalted()  returns FALSE (0001ms, 0917ms total)
T1304 051:207 JLINK_IsHalted()  returns FALSE (0001ms, 0917ms total)
T1304 051:308 JLINK_IsHalted()  returns FALSE (0001ms, 0917ms total)
T1304 051:409 JLINK_IsHalted()  returns FALSE (0001ms, 0917ms total)
T1304 051:510 JLINK_IsHalted()  returns FALSE (0001ms, 0917ms total)
T1304 051:611 JLINK_ReadMemU32(0xE0001004, 0x0001 Items, ...) -- CPU is running -- CPU_ReadMem(4 bytes @ 0xE0001004) -- Data:  01 00 00 40  returns 0x01 (0002ms, 0917ms total)
T1304 051:613 JLINK_IsHalted()  returns FALSE (0001ms, 0919ms total)
T1304 051:714 JLINK_IsHalted()  returns FALSE (0001ms, 0919ms total)
T1304 051:815 JLINK_IsHalted()  returns FALSE (0001ms, 0919ms total)
T1304 051:916 JLINK_IsHalted()  returns FALSE (0001ms, 0919ms total)
T1304 052:017 JLINK_IsHalted()  returns FALSE (0000ms, 0919ms total)
T1304 052:117 JLINK_IsHalted()  returns FALSE (0001ms, 0919ms total)
T1304 052:218 JLINK_ReadMemU32(0xE0001004, 0x0001 Items, ...) -- CPU is running -- CPU_ReadMem(4 bytes @ 0xE0001004) -- Data:  01 00 00 40  returns 0x01 (0002ms, 0919ms total)
T1304 052:220 JLINK_IsHalted()  returns FALSE (0001ms, 0921ms total)
T1304 052:321 JLINK_IsHalted()  returns FALSE (0000ms, 0921ms total)
T1304 052:421 JLINK_IsHalted()  returns FALSE (0001ms, 0921ms total)
T1304 052:522 JLINK_IsHalted()  returns FALSE (0001ms, 0921ms total)
T1304 052:623 JLINK_IsHalted()  returns FALSE (0001ms, 0921ms total)
T1304 052:724 JLINK_IsHalted()  returns FALSE (0001ms, 0921ms total)
T1304 052:825 JLINK_ReadMemU32(0xE0001004, 0x0001 Items, ...) -- CPU is running -- CPU_ReadMem(4 bytes @ 0xE0001004) -- Data:  01 00 00 40  returns 0x01 (0001ms, 0921ms total)
T1304 052:827 JLINK_IsHalted()  returns FALSE (0001ms, 0922ms total)
T1304 052:928 JLINK_IsHalted()  returns FALSE (0001ms, 0922ms total)
T1304 053:029 JLINK_IsHalted()  returns FALSE (0011ms, 0922ms total)
T1304 053:140 JLINK_IsHalted()  returns FALSE (0001ms, 0922ms total)
T1304 053:241 JLINK_IsHalted()  returns FALSE (0001ms, 0922ms total)
T1304 053:342 JLINK_ReadMemU32(0xE0001004, 0x0001 Items, ...) -- CPU is running -- CPU_ReadMem(4 bytes @ 0xE0001004) -- Data:  01 00 00 40  returns 0x01 (0001ms, 0922ms total)
T1304 053:346 JLINK_IsHalted()  returns FALSE (0000ms, 0923ms total)
T1304 053:446 JLINK_IsHalted()  returns FALSE (0001ms, 0923ms total)
T1304 053:551 JLINK_IsHalted()  returns FALSE (0002ms, 0923ms total)
T1304 053:653 JLINK_IsHalted()  returns FALSE (0001ms, 0923ms total)
T1304 053:754 JLINK_IsHalted()  returns FALSE (0000ms, 0923ms total)
T1304 053:855 JLINK_ReadMemU32(0xE0001004, 0x0001 Items, ...) -- CPU is running -- CPU_ReadMem(4 bytes @ 0xE0001004) -- Data:  01 00 00 40  returns 0x01 (0001ms, 0923ms total)
T1304 053:856 JLINK_IsHalted()  returns FALSE (0000ms, 0924ms total)
T1304 053:956 JLINK_IsHalted()  returns FALSE (0001ms, 0924ms total)
T1304 054:058 JLINK_IsHalted()  returns FALSE (0000ms, 0924ms total)
T1304 054:158 JLINK_IsHalted()  returns FALSE (0000ms, 0924ms total)
T1304 054:258 JLINK_IsHalted()  returns FALSE (0000ms, 0924ms total)
T1304 054:358 JLINK_IsHalted()  returns FALSE (0000ms, 0924ms total)
T1304 054:458 JLINK_ReadMemU32(0xE0001004, 0x0001 Items, ...) -- CPU is running -- CPU_ReadMem(4 bytes @ 0xE0001004) -- Data:  01 00 00 40  returns 0x01 (0001ms, 0924ms total)
T1304 054:459 JLINK_IsHalted()  returns FALSE (0001ms, 0925ms total)
T1304 054:561 JLINK_IsHalted()  returns FALSE (0001ms, 0925ms total)
T1304 054:662 JLINK_IsHalted()  returns FALSE (0001ms, 0925ms total)
T1304 054:763 JLINK_IsHalted()  returns FALSE (0000ms, 0925ms total)
T1304 054:863 JLINK_IsHalted()  returns FALSE (0000ms, 0925ms total)
